# 
# set TESTNAME axi_deadlock_stress_test
# axi_deadlock_stress_test
# source run.do
# ============================================================
# AXI4 Full 2M3S UVM Teaching Project
# Running TESTNAME = axi_deadlock_stress_test
# SV random seed = 830943947
# Questa transcript log = /home/txy/project/verilog/axi_full_2m3s_uvm_code/logs/axi_deadlock_stress_test_seed_830943947.log
# Project site = www.bcbaoic.top
# ============================================================
# QuestaSim-64 vlog 10.7c Compiler 2018.08 Aug 17 2018
# Start time: 13:37:34 on Jul 30,2026
# vlog -cover bcestf -work work rtl/axi_2m3s_full_dut.v 
# -- Compiling module axi_2m3s_full_dut
# 
# Top level modules:
# 	axi_2m3s_full_dut
# End time: 13:37:34 on Jul 30,2026, Elapsed time: 0:00:00
# Errors: 0, Warnings: 0
# QuestaSim-64 vlog 10.7c Compiler 2018.08 Aug 17 2018
# Start time: 13:37:34 on Jul 30,2026
# vlog -cover bcestf -work work -sv "+incdir+/home/txy/apps/Questasim/questasim/linux_x86_64/verilog_src/uvm-1.1d/src" "+incdir+tb" "+incdir+tb/interfaces" "+incdir+tb/axi" "+incdir+tb/env" "+incdir+tb/seq" "+incdir+tb/tests" tb/interfaces/axi_full_if.sv tb/axi/axi_pkg.sv tb/env/axi_env_pkg.sv tb/seq/axi_seq_pkg.sv tb/tests/axi_test_pkg.sv tb/tb_top.sv 
# -- Compiling interface axi_full_if
# -- Compiling package axi_pkg
# -- Importing package mtiUvm.uvm_pkg (uvm-1.1d Built-in)
# ** Note: (vlog-2286) tb/axi/axi_pkg.sv(13): Using implicit +incdir+/home/txy/apps/Questasim/questasim/uvm-1.1d/../verilog_src/uvm-1.1d/src from import uvm_pkg
# -- Compiling package axi_env_pkg
# -- Importing package axi_pkg
# -- Compiling package axi_seq_pkg
# -- Importing package axi_env_pkg
# -- Compiling package axi_test_pkg
# -- Importing package axi_seq_pkg
# -- Compiling module tb_top
# -- Importing package axi_test_pkg
# 
# Top level modules:
# 	tb_top
# End time: 13:37:35 on Jul 30,2026, Elapsed time: 0:00:01
# Errors: 0, Warnings: 0
# vsim -coverage -sv_seed 830943947 -voptargs="+acc" -L mtiUvm work.tb_top "+UVM_TESTNAME=axi_deadlock_stress_test" 
# Start time: 13:37:33 on Jul 30,2026
# ** Note: (vsim-3812) Design is being optimized...
# //  Questa Sim-64
# //  Version 10.7c linux_x86_64 Aug 17 2018
# //
# //  Copyright 1991-2018 Mentor Graphics Corporation
# //  All Rights Reserved.
# //
# //  QuestaSim and its associated documentation contain trade
# //  secrets and commercial or financial information that are the property of
# //  Mentor Graphics Corporation and are privileged, confidential,
# //  and exempt from disclosure under the Freedom of Information Act,
# //  5 U.S.C. Section 552. Furthermore, this information
# //  is prohibited from disclosure under the Trade Secrets Act,
# //  18 U.S.C. Section 1905.
# //
# Loading sv_std.std
# Loading work.axi_full_if(fast)
# Loading mtiUvm.uvm_pkg
# Loading work.axi_pkg(fast)
# Loading work.axi_env_pkg(fast)
# Loading work.axi_seq_pkg(fast)
# Loading work.axi_test_pkg(fast)
# Loading work.tb_top(fast)
# Loading work.axi_full_if(fast)
# Loading work.axi_2m3s_full_dut(fast)
# Loading mtiUvm.questa_uvm_pkg(fast)
# Loading /home/txy/apps/Questasim/questasim/uvm-1.1d/linux_x86_64/uvm_dpi.so
# ----------------------------------------------------------------
# UVM-1.1d
# (C) 2007-2013 Mentor Graphics Corporation
# (C) 2007-2013 Cadence Design Systems, Inc.
# (C) 2006-2013 Synopsys, Inc.
# (C) 2011-2013 Cypress Semiconductor Corp.
# ----------------------------------------------------------------
# 
#   ***********       IMPORTANT RELEASE NOTES         ************
# 
#   You are using a version of the UVM library that has been compiled
#   with `UVM_NO_DEPRECATED undefined.
#   See http://www.eda.org/svdb/view.php?id=3313 for more details.
# 
#   You are using a version of the UVM library that has been compiled
#   with `UVM_OBJECT_MUST_HAVE_CONSTRUCTOR undefined.
#   See http://www.eda.org/svdb/view.php?id=3770 for more details.
# 
#       (Specify +UVM_NO_RELNOTES to turn off this notice)
# 
# UVM_INFO verilog_src/questa_uvm_pkg-1.2/src/questa_uvm_pkg.sv(215) @ 0: reporter [Questa UVM] QUESTA_UVM-1.2.3
# UVM_INFO verilog_src/questa_uvm_pkg-1.2/src/questa_uvm_pkg.sv(216) @ 0: reporter [Questa UVM]  questa_uvm::init(+struct)
# UVM_INFO @ 0: reporter [RNTST] Running test axi_deadlock_stress_test...
# UVM_INFO tb/axi/axi_driver.svh(117) @ 105000: uvm_test_top.env.m1_agent.drv [AXI_DRV] M1 drive READ kind=REQ op= READ mid=1 id=0x9 addr=0x00000000 len=4 slave=-1 resp=0x0 ooo=0 depth=0
# UVM_INFO tb/axi/axi_driver.svh(117) @ 105000: uvm_test_top.env.m0_agent.drv [AXI_DRV] M0 drive READ kind=REQ op= READ mid=0 id=0xb addr=0x00000000 len=1 slave=-1 resp=0x0 ooo=0 depth=0
# UVM_INFO tb/axi/axi_driver.svh(117) @ 125000: uvm_test_top.env.m1_agent.drv [AXI_DRV] M1 drive READ kind=REQ op= READ mid=1 id=0x4 addr=0x00000000 len=2 slave=-1 resp=0x0 ooo=0 depth=0
# UVM_INFO tb/axi/axi_driver.svh(87) @ 125000: uvm_test_top.env.m0_agent.drv [AXI_DRV] M0 drive WRITE kind=REQ op=WRITE mid=0 id=0xb addr=0x00010000 len=8 slave=-1 resp=0x0 ooo=0 depth=0
# UVM_INFO tb/axi/axi_driver.svh(87) @ 145000: uvm_test_top.env.m1_agent.drv [AXI_DRV] M1 drive WRITE kind=REQ op=WRITE mid=1 id=0xb addr=0x00020000 len=16 slave=-1 resp=0x0 ooo=0 depth=0
# UVM_INFO tb/env/axi_scoreboard.svh(88) @ 235000: uvm_test_top.env.scb [AXI_SCB] WRITE model updated: kind=WRITE_DATA op=WRITE mid=0 id=0xb addr=0x00010000 len=8 slave=1 resp=0x0 ooo=0 depth=0
# UVM_INFO tb/axi/axi_driver.svh(87) @ 235000: uvm_test_top.env.m0_agent.drv [AXI_DRV] M0 drive WRITE kind=REQ op=WRITE mid=0 id=0xf addr=0x00010000 len=16 slave=-1 resp=0x0 ooo=0 depth=0
# UVM_INFO tb/env/axi_scoreboard.svh(88) @ 335000: uvm_test_top.env.scb [AXI_SCB] WRITE model updated: kind=WRITE_DATA op=WRITE mid=1 id=0xb addr=0x00020000 len=16 slave=2 resp=0x0 ooo=0 depth=0
# UVM_INFO tb/axi/axi_driver.svh(87) @ 335000: uvm_test_top.env.m1_agent.drv [AXI_DRV] M1 drive WRITE kind=REQ op=WRITE mid=1 id=0xe addr=0x00010000 len=1 slave=-1 resp=0x0 ooo=0 depth=0
# UVM_INFO tb/env/axi_scoreboard.svh(88) @ 375000: uvm_test_top.env.scb [AXI_SCB] WRITE model updated: kind=WRITE_DATA op=WRITE mid=1 id=0xe addr=0x00010000 len=1 slave=1 resp=0x0 ooo=0 depth=0
# UVM_INFO tb/axi/axi_driver.svh(87) @ 375000: uvm_test_top.env.m1_agent.drv [AXI_DRV] M1 drive WRITE kind=REQ op=WRITE mid=1 id=0x1 addr=0x00000000 len=1 slave=-1 resp=0x0 ooo=0 depth=0
# UVM_INFO tb/env/axi_scoreboard.svh(88) @ 415000: uvm_test_top.env.scb [AXI_SCB] WRITE model updated: kind=WRITE_DATA op=WRITE mid=1 id=0x1 addr=0x00000000 len=1 slave=0 resp=0x0 ooo=0 depth=0
# UVM_INFO tb/axi/axi_driver.svh(117) @ 415000: uvm_test_top.env.m1_agent.drv [AXI_DRV] M1 drive READ kind=REQ op= READ mid=1 id=0xb addr=0x00000000 len=2 slave=-1 resp=0x0 ooo=0 depth=0
# UVM_INFO tb/env/axi_scoreboard.svh(88) @ 425000: uvm_test_top.env.scb [AXI_SCB] WRITE model updated: kind=WRITE_DATA op=WRITE mid=0 id=0xf addr=0x00010000 len=16 slave=1 resp=0x0 ooo=0 depth=0
# UVM_INFO tb/axi/axi_driver.svh(117) @ 425000: uvm_test_top.env.m0_agent.drv [AXI_DRV] M0 drive READ kind=REQ op= READ mid=0 id=0x1 addr=0x00020000 len=16 slave=-1 resp=0x0 ooo=0 depth=0
# UVM_INFO tb/axi/axi_driver.svh(117) @ 435000: uvm_test_top.env.m1_agent.drv [AXI_DRV] M1 drive READ kind=REQ op= READ mid=1 id=0x4 addr=0x00020000 len=8 slave=-1 resp=0x0 ooo=0 depth=0
# UVM_INFO tb/axi/axi_driver.svh(117) @ 445000: uvm_test_top.env.m0_agent.drv [AXI_DRV] M0 drive READ kind=REQ op= READ mid=0 id=0xc addr=0x00010000 len=2 slave=-1 resp=0x0 ooo=0 depth=0
# UVM_INFO tb/axi/axi_driver.svh(117) @ 455000: uvm_test_top.env.m1_agent.drv [AXI_DRV] M1 drive READ kind=REQ op= READ mid=1 id=0x6 addr=0x00000000 len=2 slave=-1 resp=0x0 ooo=0 depth=0
# UVM_INFO tb/axi/axi_driver.svh(117) @ 465000: uvm_test_top.env.m0_agent.drv [AXI_DRV] M0 drive READ kind=REQ op= READ mid=0 id=0xe addr=0x00020000 len=1 slave=-1 resp=0x0 ooo=0 depth=0
# UVM_INFO tb/axi/axi_driver.svh(87) @ 475000: uvm_test_top.env.m1_agent.drv [AXI_DRV] M1 drive WRITE kind=REQ op=WRITE mid=1 id=0xd addr=0x00000000 len=16 slave=-1 resp=0x0 ooo=0 depth=0
# UVM_INFO tb/axi/axi_driver.svh(87) @ 485000: uvm_test_top.env.m0_agent.drv [AXI_DRV] M0 drive WRITE kind=REQ op=WRITE mid=0 id=0xc addr=0x00010000 len=1 slave=-1 resp=0x0 ooo=0 depth=0
# UVM_INFO tb/env/axi_scoreboard.svh(88) @ 525000: uvm_test_top.env.scb [AXI_SCB] WRITE model updated: kind=WRITE_DATA op=WRITE mid=0 id=0xc addr=0x00010000 len=1 slave=1 resp=0x0 ooo=0 depth=0
# UVM_INFO tb/axi/axi_driver.svh(87) @ 525000: uvm_test_top.env.m0_agent.drv [AXI_DRV] M0 drive WRITE kind=REQ op=WRITE mid=0 id=0x8 addr=0x00010000 len=2 slave=-1 resp=0x0 ooo=0 depth=0
# UVM_ERROR tb/env/axi_scoreboard.svh(127) @ 555000: uvm_test_top.env.scb [AXI_SCB] READ data mismatch mid=1 id=0x6 addr=0x00000000 beat=0 exp=0x50000080 got=0x50000100
# UVM_ERROR tb/env/axi_scoreboard.svh(127) @ 555000: uvm_test_top.env.scb [AXI_SCB] READ data mismatch mid=1 id=0x6 addr=0x00000000 beat=1 exp=0x00000000 got=0x50000101
# UVM_INFO tb/env/axi_scoreboard.svh(88) @ 575000: uvm_test_top.env.scb [AXI_SCB] WRITE model updated: kind=WRITE_DATA op=WRITE mid=0 id=0x8 addr=0x00010000 len=2 slave=1 resp=0x0 ooo=0 depth=0
# UVM_INFO tb/axi/axi_driver.svh(117) @ 575000: uvm_test_top.env.m0_agent.drv [AXI_DRV] M0 drive READ kind=REQ op= READ mid=0 id=0xe addr=0x00000000 len=8 slave=-1 resp=0x0 ooo=0 depth=0
# UVM_ERROR tb/env/axi_scoreboard.svh(127) @ 585000: uvm_test_top.env.scb [AXI_SCB] READ data mismatch mid=0 id=0xc addr=0x00010000 beat=0 exp=0x500000e0 got=0x500000c0
# UVM_INFO tb/axi/axi_driver.svh(117) @ 595000: uvm_test_top.env.m0_agent.drv [AXI_DRV] M0 drive READ kind=REQ op= READ mid=0 id=0xc addr=0x00000000 len=2 slave=-1 resp=0x0 ooo=0 depth=0
# UVM_INFO tb/axi/axi_driver.svh(117) @ 615000: uvm_test_top.env.m0_agent.drv [AXI_DRV] M0 drive READ kind=REQ op= READ mid=0 id=0xf addr=0x00000000 len=4 slave=-1 resp=0x0 ooo=0 depth=0
# UVM_INFO tb/axi/axi_driver.svh(87) @ 635000: uvm_test_top.env.m0_agent.drv [AXI_DRV] M0 drive WRITE kind=REQ op=WRITE mid=0 id=0x9 addr=0x00000000 len=2 slave=-1 resp=0x0 ooo=0 depth=0
# UVM_INFO tb/env/axi_scoreboard.svh(88) @ 665000: uvm_test_top.env.scb [AXI_SCB] WRITE model updated: kind=WRITE_DATA op=WRITE mid=1 id=0xd addr=0x00000000 len=16 slave=0 resp=0x0 ooo=0 depth=0
# UVM_INFO tb/axi/axi_driver.svh(117) @ 665000: uvm_test_top.env.m1_agent.drv [AXI_DRV] M1 drive READ kind=REQ op= READ mid=1 id=0x6 addr=0x00020000 len=1 slave=-1 resp=0x0 ooo=0 depth=0
# UVM_INFO tb/env/axi_scoreboard.svh(88) @ 685000: uvm_test_top.env.scb [AXI_SCB] WRITE model updated: kind=WRITE_DATA op=WRITE mid=0 id=0x9 addr=0x00000000 len=2 slave=0 resp=0x0 ooo=0 depth=0
# UVM_INFO tb/axi/axi_driver.svh(117) @ 685000: uvm_test_top.env.m1_agent.drv [AXI_DRV] M1 drive READ kind=REQ op= READ mid=1 id=0x8 addr=0x00000000 len=16 slave=-1 resp=0x0 ooo=0 depth=0
# UVM_INFO tb/axi/axi_driver.svh(117) @ 685000: uvm_test_top.env.m0_agent.drv [AXI_DRV] M0 drive READ kind=REQ op= READ mid=0 id=0x9 addr=0x00000000 len=2 slave=-1 resp=0x0 ooo=0 depth=0
# UVM_INFO tb/axi/axi_driver.svh(87) @ 705000: uvm_test_top.env.m1_agent.drv [AXI_DRV] M1 drive WRITE kind=REQ op=WRITE mid=1 id=0xd addr=0x00020000 len=2 slave=-1 resp=0x0 ooo=0 depth=0
# UVM_INFO tb/axi/axi_driver.svh(117) @ 705000: uvm_test_top.env.m0_agent.drv [AXI_DRV] M0 drive READ kind=REQ op= READ mid=0 id=0x6 addr=0x00000000 len=1 slave=-1 resp=0x0 ooo=0 depth=0
# UVM_INFO tb/axi/axi_driver.svh(117) @ 725000: uvm_test_top.env.m0_agent.drv [AXI_DRV] M0 drive READ kind=REQ op= READ mid=0 id=0x9 addr=0x00010000 len=2 slave=-1 resp=0x0 ooo=0 depth=0
# UVM_INFO tb/axi/axi_driver.svh(117) @ 745000: uvm_test_top.env.m0_agent.drv [AXI_DRV] M0 drive READ kind=REQ op= READ mid=0 id=0xf addr=0x00010000 len=1 slave=-1 resp=0x0 ooo=0 depth=0
# UVM_INFO tb/env/axi_scoreboard.svh(88) @ 755000: uvm_test_top.env.scb [AXI_SCB] WRITE model updated: kind=WRITE_DATA op=WRITE mid=1 id=0xd addr=0x00020000 len=2 slave=2 resp=0x0 ooo=0 depth=0
# UVM_INFO tb/axi/axi_driver.svh(117) @ 755000: uvm_test_top.env.m1_agent.drv [AXI_DRV] M1 drive READ kind=REQ op= READ mid=1 id=0x9 addr=0x00010000 len=1 slave=-1 resp=0x0 ooo=0 depth=0
# UVM_INFO tb/axi/axi_driver.svh(87) @ 765000: uvm_test_top.env.m0_agent.drv [AXI_DRV] M0 drive WRITE kind=REQ op=WRITE mid=0 id=0x5 addr=0x00020000 len=2 slave=-1 resp=0x0 ooo=0 depth=0
# UVM_INFO tb/axi/axi_driver.svh(117) @ 775000: uvm_test_top.env.m1_agent.drv [AXI_DRV] M1 drive READ kind=REQ op= READ mid=1 id=0xf addr=0x00020000 len=16 slave=-1 resp=0x0 ooo=0 depth=0
# UVM_INFO tb/axi/axi_driver.svh(117) @ 795000: uvm_test_top.env.m1_agent.drv [AXI_DRV] M1 drive READ kind=REQ op= READ mid=1 id=0xc addr=0x00010000 len=16 slave=-1 resp=0x0 ooo=0 depth=0
# UVM_ERROR tb/env/axi_scoreboard.svh(127) @ 805000: uvm_test_top.env.scb [AXI_SCB] READ data mismatch mid=0 id=0x1 addr=0x00020000 beat=0 exp=0x50000160 got=0x50000040
# UVM_ERROR tb/env/axi_scoreboard.svh(127) @ 805000: uvm_test_top.env.scb [AXI_SCB] READ data mismatch mid=0 id=0x1 addr=0x00020000 beat=1 exp=0x50000161 got=0x50000041
# UVM_INFO tb/env/axi_scoreboard.svh(88) @ 815000: uvm_test_top.env.scb [AXI_SCB] WRITE model updated: kind=WRITE_DATA op=WRITE mid=0 id=0x5 addr=0x00020000 len=2 slave=2 resp=0x0 ooo=0 depth=0
# UVM_INFO tb/axi/axi_driver.svh(87) @ 815000: uvm_test_top.env.m1_agent.drv [AXI_DRV] M1 drive WRITE kind=REQ op=WRITE mid=1 id=0xa addr=0x00000000 len=4 slave=-1 resp=0x0 ooo=0 depth=0
# UVM_INFO tb/axi/axi_driver.svh(117) @ 815000: uvm_test_top.env.m0_agent.drv [AXI_DRV] M0 drive READ kind=REQ op= READ mid=0 id=0x0 addr=0x00020000 len=2 slave=-1 resp=0x0 ooo=0 depth=0
# UVM_INFO tb/axi/axi_driver.svh(87) @ 835000: uvm_test_top.env.m0_agent.drv [AXI_DRV] M0 drive WRITE kind=REQ op=WRITE mid=0 id=0xe addr=0x00010000 len=8 slave=-1 resp=0x0 ooo=0 depth=0
# UVM_ERROR tb/env/axi_scoreboard.svh(127) @ 845000: uvm_test_top.env.scb [AXI_SCB] READ data mismatch mid=0 id=0x9 addr=0x00000000 beat=0 exp=0x50000160 got=0x500000e0
# UVM_ERROR tb/env/axi_scoreboard.svh(127) @ 845000: uvm_test_top.env.scb [AXI_SCB] READ data mismatch mid=0 id=0x9 addr=0x00000000 beat=1 exp=0x50000161 got=0x500000e1
# UVM_ERROR tb/env/axi_scoreboard.svh(119) @ 865000: uvm_test_top.env.scb [AXI_SCB] READ data size mismatch: kind=READ_RSP op= READ mid=0 id=0xf addr=0x00000000 len=4 slave=0 resp=0x0 ooo=0 depth=0 data_size=1
# UVM_ERROR tb/env/axi_scoreboard.svh(127) @ 885000: uvm_test_top.env.scb [AXI_SCB] READ data mismatch mid=0 id=0x6 addr=0x00000000 beat=0 exp=0x50000160 got=0x500001e0
# UVM_INFO tb/env/axi_scoreboard.svh(88) @ 885000: uvm_test_top.env.scb [AXI_SCB] WRITE model updated: kind=WRITE_DATA op=WRITE mid=1 id=0xa addr=0x00000000 len=4 slave=0 resp=0x0 ooo=0 depth=0
# UVM_INFO tb/axi/axi_driver.svh(87) @ 885000: uvm_test_top.env.m1_agent.drv [AXI_DRV] M1 drive WRITE kind=REQ op=WRITE mid=1 id=0x5 addr=0x00020000 len=2 slave=-1 resp=0x0 ooo=0 depth=0
# UVM_INFO tb/env/axi_scoreboard.svh(88) @ 935000: uvm_test_top.env.scb [AXI_SCB] WRITE model updated: kind=WRITE_DATA op=WRITE mid=1 id=0x5 addr=0x00020000 len=2 slave=2 resp=0x0 ooo=0 depth=0
# UVM_INFO tb/axi/axi_driver.svh(117) @ 935000: uvm_test_top.env.m1_agent.drv [AXI_DRV] M1 drive READ kind=REQ op= READ mid=1 id=0x7 addr=0x00000000 len=16 slave=-1 resp=0x0 ooo=0 depth=0
# UVM_INFO tb/env/axi_scoreboard.svh(88) @ 945000: uvm_test_top.env.scb [AXI_SCB] WRITE model updated: kind=WRITE_DATA op=WRITE mid=0 id=0xe addr=0x00010000 len=8 slave=1 resp=0x0 ooo=0 depth=0
# UVM_ERROR tb/env/axi_scoreboard.svh(127) @ 945000: uvm_test_top.env.scb [AXI_SCB] READ data mismatch mid=1 id=0x8 addr=0x00000000 beat=0 exp=0x500001e0 got=0x50000160
# UVM_ERROR tb/env/axi_scoreboard.svh(127) @ 945000: uvm_test_top.env.scb [AXI_SCB] READ data mismatch mid=1 id=0x8 addr=0x00000000 beat=1 exp=0x500001e1 got=0x50000161
# UVM_ERROR tb/env/axi_scoreboard.svh(127) @ 945000: uvm_test_top.env.scb [AXI_SCB] READ data mismatch mid=1 id=0x8 addr=0x00000000 beat=2 exp=0x500001e2 got=0x50000102
# UVM_ERROR tb/env/axi_scoreboard.svh(127) @ 945000: uvm_test_top.env.scb [AXI_SCB] READ data mismatch mid=1 id=0x8 addr=0x00000000 beat=3 exp=0x500001e3 got=0x50000103
# UVM_INFO tb/axi/axi_driver.svh(87) @ 945000: uvm_test_top.env.m0_agent.drv [AXI_DRV] M0 drive WRITE kind=REQ op=WRITE mid=0 id=0x3 addr=0x00010000 len=4 slave=-1 resp=0x0 ooo=0 depth=0
# UVM_ERROR tb/env/axi_scoreboard.svh(127) @ 955000: uvm_test_top.env.scb [AXI_SCB] READ data mismatch mid=0 id=0x9 addr=0x00010000 beat=0 exp=0x50000240 got=0x500001e0
# UVM_ERROR tb/env/axi_scoreboard.svh(127) @ 955000: uvm_test_top.env.scb [AXI_SCB] READ data mismatch mid=0 id=0x9 addr=0x00010000 beat=1 exp=0x50000241 got=0x500001e1
# UVM_INFO tb/axi/axi_driver.svh(87) @ 955000: uvm_test_top.env.m1_agent.drv [AXI_DRV] M1 drive WRITE kind=REQ op=WRITE mid=1 id=0xd addr=0x00010000 len=1 slave=-1 resp=0x0 ooo=0 depth=0
# UVM_INFO tb/env/axi_scoreboard.svh(88) @ 995000: uvm_test_top.env.scb [AXI_SCB] WRITE model updated: kind=WRITE_DATA op=WRITE mid=1 id=0xd addr=0x00010000 len=1 slave=1 resp=0x0 ooo=0 depth=0
# UVM_INFO tb/axi/axi_driver.svh(87) @ 995000: uvm_test_top.env.m1_agent.drv [AXI_DRV] M1 drive WRITE kind=REQ op=WRITE mid=1 id=0x9 addr=0x00010000 len=8 slave=-1 resp=0x0 ooo=0 depth=0
# UVM_INFO tb/env/axi_scoreboard.svh(88) @ 1015000: uvm_test_top.env.scb [AXI_SCB] WRITE model updated: kind=WRITE_DATA op=WRITE mid=0 id=0x3 addr=0x00010000 len=4 slave=1 resp=0x0 ooo=0 depth=0
# UVM_INFO tb/axi/axi_driver.svh(87) @ 1015000: uvm_test_top.env.m0_agent.drv [AXI_DRV] M0 drive WRITE kind=REQ op=WRITE mid=0 id=0x5 addr=0x00010000 len=2 slave=-1 resp=0x0 ooo=0 depth=0
# UVM_ERROR tb/env/axi_scoreboard.svh(119) @ 1045000: uvm_test_top.env.scb [AXI_SCB] READ data size mismatch: kind=READ_RSP op= READ mid=0 id=0xf addr=0x00010000 len=1 slave=1 resp=0x0 ooo=0 depth=0 data_size=4
# UVM_INFO tb/env/axi_scoreboard.svh(88) @ 1065000: uvm_test_top.env.scb [AXI_SCB] WRITE model updated: kind=WRITE_DATA op=WRITE mid=0 id=0x5 addr=0x00010000 len=2 slave=1 resp=0x0 ooo=0 depth=0
# UVM_INFO tb/axi/axi_driver.svh(117) @ 1065000: uvm_test_top.env.m0_agent.drv [AXI_DRV] M0 drive READ kind=REQ op= READ mid=0 id=0x2 addr=0x00010000 len=8 slave=-1 resp=0x0 ooo=0 depth=0
# UVM_INFO tb/axi/axi_driver.svh(87) @ 1085000: uvm_test_top.env.m0_agent.drv [AXI_DRV] M0 drive WRITE kind=REQ op=WRITE mid=0 id=0xf addr=0x00000000 len=4 slave=-1 resp=0x0 ooo=0 depth=0
# UVM_INFO tb/env/axi_scoreboard.svh(88) @ 1105000: uvm_test_top.env.scb [AXI_SCB] WRITE model updated: kind=WRITE_DATA op=WRITE mid=1 id=0x9 addr=0x00010000 len=8 slave=1 resp=0x0 ooo=0 depth=0
# UVM_INFO tb/axi/axi_driver.svh(117) @ 1105000: uvm_test_top.env.m1_agent.drv [AXI_DRV] M1 drive READ kind=REQ op= READ mid=1 id=0xf addr=0x00010000 len=1 slave=-1 resp=0x0 ooo=0 depth=0
# UVM_INFO tb/axi/axi_driver.svh(87) @ 1125000: uvm_test_top.env.m1_agent.drv [AXI_DRV] M1 drive WRITE kind=REQ op=WRITE mid=1 id=0xe addr=0x00010000 len=8 slave=-1 resp=0x0 ooo=0 depth=0
# UVM_ERROR tb/env/axi_scoreboard.svh(127) @ 1135000: uvm_test_top.env.scb [AXI_SCB] READ data mismatch mid=1 id=0xc addr=0x00010000 beat=0 exp=0x50000260 got=0x50000240
# UVM_ERROR tb/env/axi_scoreboard.svh(127) @ 1135000: uvm_test_top.env.scb [AXI_SCB] READ data mismatch mid=1 id=0xc addr=0x00010000 beat=1 exp=0x50000261 got=0x50000241
# UVM_ERROR tb/env/axi_scoreboard.svh(127) @ 1135000: uvm_test_top.env.scb [AXI_SCB] READ data mismatch mid=1 id=0xc addr=0x00010000 beat=2 exp=0x50000262 got=0x50000242
# UVM_ERROR tb/env/axi_scoreboard.svh(127) @ 1135000: uvm_test_top.env.scb [AXI_SCB] READ data mismatch mid=1 id=0xc addr=0x00010000 beat=3 exp=0x50000263 got=0x50000243
# UVM_ERROR tb/env/axi_scoreboard.svh(127) @ 1135000: uvm_test_top.env.scb [AXI_SCB] READ data mismatch mid=1 id=0xc addr=0x00010000 beat=4 exp=0x50000264 got=0x50000244
# UVM_ERROR tb/env/axi_scoreboard.svh(127) @ 1135000: uvm_test_top.env.scb [AXI_SCB] READ data mismatch mid=1 id=0xc addr=0x00010000 beat=5 exp=0x50000265 got=0x50000245
# UVM_ERROR tb/env/axi_scoreboard.svh(127) @ 1135000: uvm_test_top.env.scb [AXI_SCB] READ data mismatch mid=1 id=0xc addr=0x00010000 beat=6 exp=0x50000266 got=0x50000246
# UVM_ERROR tb/env/axi_scoreboard.svh(127) @ 1135000: uvm_test_top.env.scb [AXI_SCB] READ data mismatch mid=1 id=0xc addr=0x00010000 beat=7 exp=0x50000267 got=0x50000247
# UVM_INFO tb/env/axi_scoreboard.svh(88) @ 1155000: uvm_test_top.env.scb [AXI_SCB] WRITE model updated: kind=WRITE_DATA op=WRITE mid=0 id=0xf addr=0x00000000 len=4 slave=0 resp=0x0 ooo=0 depth=0
# UVM_INFO tb/axi/axi_driver.svh(87) @ 1155000: uvm_test_top.env.m0_agent.drv [AXI_DRV] M0 drive WRITE kind=REQ op=WRITE mid=0 id=0x4 addr=0x00020000 len=4 slave=-1 resp=0x0 ooo=0 depth=0
# UVM_ERROR tb/env/axi_scoreboard.svh(127) @ 1195000: uvm_test_top.env.scb [AXI_SCB] READ data mismatch mid=0 id=0xe addr=0x00000000 beat=0 exp=0x500002c0 got=0x500001e0
# UVM_ERROR tb/env/axi_scoreboard.svh(127) @ 1195000: uvm_test_top.env.scb [AXI_SCB] READ data mismatch mid=0 id=0xe addr=0x00000000 beat=1 exp=0x500002c1 got=0x500001e1
# UVM_ERROR tb/env/axi_scoreboard.svh(127) @ 1195000: uvm_test_top.env.scb [AXI_SCB] READ data mismatch mid=0 id=0xe addr=0x00000000 beat=2 exp=0x500002c2 got=0x500001e2
# UVM_ERROR tb/env/axi_scoreboard.svh(127) @ 1195000: uvm_test_top.env.scb [AXI_SCB] READ data mismatch mid=0 id=0xe addr=0x00000000 beat=3 exp=0x500002c3 got=0x500001e3
# UVM_INFO tb/env/axi_scoreboard.svh(88) @ 1225000: uvm_test_top.env.scb [AXI_SCB] WRITE model updated: kind=WRITE_DATA op=WRITE mid=0 id=0x4 addr=0x00020000 len=4 slave=2 resp=0x0 ooo=0 depth=0
# UVM_INFO tb/axi/axi_driver.svh(87) @ 1225000: uvm_test_top.env.m0_agent.drv [AXI_DRV] M0 drive WRITE kind=REQ op=WRITE mid=0 id=0x6 addr=0x00000000 len=2 slave=-1 resp=0x0 ooo=0 depth=0
# UVM_INFO tb/env/axi_scoreboard.svh(88) @ 1235000: uvm_test_top.env.scb [AXI_SCB] WRITE model updated: kind=WRITE_DATA op=WRITE mid=1 id=0xe addr=0x00010000 len=8 slave=1 resp=0x0 ooo=0 depth=0
# UVM_INFO tb/axi/axi_driver.svh(117) @ 1235000: uvm_test_top.env.m1_agent.drv [AXI_DRV] M1 drive READ kind=REQ op= READ mid=1 id=0xa addr=0x00020000 len=1 slave=-1 resp=0x0 ooo=0 depth=0
# UVM_INFO tb/axi/axi_driver.svh(87) @ 1255000: uvm_test_top.env.m1_agent.drv [AXI_DRV] M1 drive WRITE kind=REQ op=WRITE mid=1 id=0x7 addr=0x00000000 len=1 slave=-1 resp=0x0 ooo=0 depth=0
# UVM_INFO tb/env/axi_scoreboard.svh(88) @ 1275000: uvm_test_top.env.scb [AXI_SCB] WRITE model updated: kind=WRITE_DATA op=WRITE mid=0 id=0x6 addr=0x00000000 len=2 slave=0 resp=0x0 ooo=0 depth=0
# UVM_INFO tb/env/axi_scoreboard.svh(88) @ 1295000: uvm_test_top.env.scb [AXI_SCB] WRITE model updated: kind=WRITE_DATA op=WRITE mid=1 id=0x7 addr=0x00000000 len=1 slave=0 resp=0x0 ooo=0 depth=0
# UVM_ERROR tb/env/axi_scoreboard.svh(127) @ 1325000: uvm_test_top.env.scb [AXI_SCB] READ data mismatch mid=1 id=0x7 addr=0x00000000 beat=0 exp=0x500002e0 got=0x500002c0
# UVM_ERROR tb/env/axi_scoreboard.svh(127) @ 1325000: uvm_test_top.env.scb [AXI_SCB] READ data mismatch mid=1 id=0x7 addr=0x00000000 beat=1 exp=0x50000301 got=0x500002c1
# UVM_ERROR tb/env/axi_scoreboard.svh(119) @ 1365000: uvm_test_top.env.scb [AXI_SCB] READ data size mismatch: kind=READ_RSP op= READ mid=1 id=0xf addr=0x00020000 len=16 slave=2 resp=0x0 ooo=0 depth=0 data_size=1
# UVM_ERROR tb/env/axi_scoreboard.svh(119) @ 1645000: uvm_test_top.env.scb [AXI_SCB] READ data size mismatch: kind=READ_RSP op= READ mid=1 id=0xf addr=0x00010000 len=1 slave=1 resp=0x0 ooo=0 depth=0 data_size=16
# UVM_INFO verilog_src/uvm-1.1d/src/base/uvm_objection.svh(1267) @ 21275000: reporter [TEST_DONE] 'run' phase is ready to proceed to the 'extract' phase
# UVM_INFO tb/env/axi_coverage.svh(149) @ 21275000: uvm_test_top.env.cov [AXI_COV] Functional coverage = 85.83%
# UVM_INFO tb/env/axi_scoreboard.svh(138) @ 21275000: uvm_test_top.env.scb [AXI_SCB] Scoreboard summary: pass=109 fail=32 writes=23 reads=26
# UVM_ERROR tb/env/axi_scoreboard.svh(140) @ 21275000: uvm_test_top.env.scb [AXI_SCB] Scoreboard found 32 failures
# 
# --- UVM Report Summary ---
# 
# ** Report counts by severity
# UVM_INFO :   78
# UVM_WARNING :    0
# UVM_ERROR :   33
# UVM_FATAL :    0
# ** Report counts by id
# [AXI_COV]     1
# [AXI_DRV]    49
# [AXI_SCB]    57
# [Questa UVM]     2
# [RNTST]     1
# [TEST_DONE]     1
# ** Note: $finish    : /home/txy/apps/Questasim/questasim/linux_x86_64/../verilog_src/uvm-1.1d/src/base/uvm_root.svh(430)
#    Time: 21275 ns  Iteration: 54  Instance: /tb_top
# Break in Task uvm_pkg/uvm_root::run_test at /home/txy/apps/Questasim/questasim/linux_x86_64/../verilog_src/uvm-1.1d/src/base/uvm_root.svh line 430
# ============================
# START COVERAGE REPORT
# ============================
# ============================
# SAVE UCDB
# ============================
# ============================
# COVERAGE DONE
# ============================
# ============================================================
# Simulation completed for TESTNAME = axi_deadlock_stress_test
# SV random seed used = 830943947
# Transcript log saved to /home/txy/project/verilog/axi_full_2m3s_uvm_code/logs/axi_deadlock_stress_test_seed_830943947.log
# Functional coverage report saved to /home/txy/project/verilog/axi_full_2m3s_uvm_code/logs/axi_deadlock_stress_test_seed_830943947_functional_coverage.rpt when available.
# UCDB file saved to /home/txy/project/verilog/axi_full_2m3s_uvm_code/logs/axi_deadlock_stress_test_seed_830943947.ucdb when available.
# ============================================================
# exit
# 
# End time: 13:37:39 on Jul 30,2026, Elapsed time: 0:00:06
# Errors: 0, Warnings: 0
